Design Assistant report for axi_va_pa_ip
Wed Feb  6 14:40:11 2019
Quartus II 64-Bit Version 13.0.1 Build 232 06/12/2013 Service Pack 1 SJ Full Version


---------------------
; Table of Contents ;
---------------------
  1. Legal Notice
  2. Design Assistant Summary
  3. Design Assistant Settings
  4. Medium Violations
  5. Information only Violations
  6. Design Assistant Messages



----------------
; Legal Notice ;
----------------
Copyright (C) 1991-2013 Altera Corporation
Your use of Altera Corporation's design tools, logic functions 
and other software and tools, and its AMPP partner logic 
functions, and any output files from any of the foregoing 
(including device programming or simulation files), and any 
associated documentation or information are expressly subject 
to the terms and conditions of the Altera Program License 
Subscription Agreement, Altera MegaCore Function License 
Agreement, or other applicable license agreement, including, 
without limitation, that your use is for the sole purpose of 
programming logic devices manufactured by Altera and sold by 
Altera or its authorized distributors.  Please refer to the 
applicable agreement for further details.



+-------------------------------------------------------------------------+
; Design Assistant Summary                                                ;
+-----------------------------------+-------------------------------------+
; Design Assistant Status           ; Analyzed - Wed Feb  6 14:40:11 2019 ;
; Revision Name                     ; axi_va_pa_ip                        ;
; Top-level Entity Name             ; axi_va_pa_ip                        ;
; Family                            ; Cyclone IV E                        ;
; Total Critical Violations         ; 0                                   ;
; Total High Violations             ; 0                                   ;
; Total Medium Violations           ; 1                                   ;
; - Rule R102                       ; 1                                   ;
; Total Information only Violations ; 76                                  ;
; - Rule T101                       ; 26                                  ;
; - Rule T102                       ; 50                                  ;
+-----------------------------------+-------------------------------------+


+----------------------------------------------------------------------------------------------------------------------------------------------------------------------------------------------------------------------------------------------------------------------------------------------------------+
; Design Assistant Settings                                                                                                                                                                                                                                                                                ;
+--------------------------------------------------------------------------------------------------------------------------------------------------------------------------------------------------------------------------------------------------------------------------------------+--------------+----+
; Option                                                                                                                                                                                                                                                                               ; Setting      ; To ;
+--------------------------------------------------------------------------------------------------------------------------------------------------------------------------------------------------------------------------------------------------------------------------------------+--------------+----+
; Design Assistant mode                                                                                                                                                                                                                                                                ; Post-Fitting ;    ;
; Threshold value for clock net not mapped to clock spines rule                                                                                                                                                                                                                        ; 25           ;    ;
; Minimum number of clock port feed by gated clocks                                                                                                                                                                                                                                    ; 30           ;    ;
; Minimum number of node fan-out                                                                                                                                                                                                                                                       ; 30           ;    ;
; Maximum number of nodes to report                                                                                                                                                                                                                                                    ; 50           ;    ;
; Rule C101: Gated clock should be implemented according to the Altera standard scheme                                                                                                                                                                                                 ; On           ;    ;
; Rule C102: Logic cell should not be used to generate an inverted clock signal                                                                                                                                                                                                        ; On           ;    ;
; Rule C103: Gated clock does not feed at least a pre-defined number of clock ports to effectively save power                                                                                                                                                                          ; On           ;    ;
; Rule C104: Clock signal source should drive only clock input ports                                                                                                                                                                                                                   ; On           ;    ;
; Rule C105: Clock signal should be a global signal (Rule applies during post-fitting analysis. This rule applies during both post-fitting analysis and post-synthesis analysis if the design targets a MAX 3000 or MAX 7000 device. For more information, see the Help for the rule.) ; On           ;    ;
; Rule C106: Clock signal source should not drive registers triggered by different clock edges                                                                                                                                                                                         ; On           ;    ;
; Rule R101: Combinational logic used as a reset signal should be synchronized                                                                                                                                                                                                         ; On           ;    ;
; Rule R102: External reset signals should be synchronized using two cascaded registers                                                                                                                                                                                                ; On           ;    ;
; Rule R103: External reset signal should be correctly synchronized                                                                                                                                                                                                                    ; On           ;    ;
; Rule R104: The reset signal that is generated in one clock domain and used in another clock domain should be correctly synchronized                                                                                                                                                  ; On           ;    ;
; Rule R105: The reset signal that is generated in one clock domain and used in another clock domain should be synchronized                                                                                                                                                            ; On           ;    ;
; Rule T101: Nodes with more than the specified number of fan-outs                                                                                                                                                                                                                     ; On           ;    ;
; Rule T102: Top nodes with the highest number of fan-outs                                                                                                                                                                                                                             ; On           ;    ;
; Rule A101: Design should not contain combinational loops                                                                                                                                                                                                                             ; On           ;    ;
; Rule A102: Register output should not drive its own control signal directly or through combinational logic                                                                                                                                                                           ; On           ;    ;
; Rule A103: Design should not contain delay chains                                                                                                                                                                                                                                    ; On           ;    ;
; Rule A104: Design should not contain ripple clock structures                                                                                                                                                                                                                         ; On           ;    ;
; Rule A105: Pulses should not be implemented asynchronously                                                                                                                                                                                                                           ; On           ;    ;
; Rule A106: Multiple pulses should not be generated in design                                                                                                                                                                                                                         ; On           ;    ;
; Rule A107: Design should not contain SR latches                                                                                                                                                                                                                                      ; On           ;    ;
; Rule A108: Design should not contain latches                                                                                                                                                                                                                                         ; On           ;    ;
; Rule S101: Output enable and input of the same tri-state node should not be driven by same signal source                                                                                                                                                                             ; On           ;    ;
; Rule S102: Synchronous port and asynchronous port of the same register should not be driven by the same signal source                                                                                                                                                                ; On           ;    ;
; Rule S103: More than one asynchronous port of a register should not be driven by the same signal source                                                                                                                                                                              ; On           ;    ;
; Rule S104: Clock port and any other port of a register should not be driven by the same signal source                                                                                                                                                                                ; On           ;    ;
; Rule D101: Data bits are not synchronized when transferred between asynchronous clock domains                                                                                                                                                                                        ; On           ;    ;
; Rule D102: Multiple data bits that are transferred across asynchronous clock domains are synchronized, but not all bits may be aligned in the receiving clock domain                                                                                                                 ; On           ;    ;
; Rule D103: Data bits are not correctly synchronized when transferred between asynchronous clock domains                                                                                                                                                                              ; On           ;    ;
; Rule M101: Data bits are not synchronized when transferred to the state machine of asynchronous clock domains                                                                                                                                                                        ; Off          ;    ;
; Rule M102: No reset signal defined to initialize the state machine                                                                                                                                                                                                                   ; Off          ;    ;
; Rule M103: State machine should not contain an unreachable state                                                                                                                                                                                                                     ; Off          ;    ;
; Rule M104: State machine should not contain a deadlock state                                                                                                                                                                                                                         ; Off          ;    ;
; Rule M105: State machine should not contain a dead transition                                                                                                                                                                                                                        ; Off          ;    ;
+--------------------------------------------------------------------------------------------------------------------------------------------------------------------------------------------------------------------------------------------------------------------------------------+--------------+----+


+-------------------------------------------------------------------------------------------------------------------------------------------------------+
; Medium Violations                                                                                                                                     ;
+---------------------------------------------------------------------------------------+---------------------------------------------------------------+
; Rule name                                                                             ; Name                                                          ;
+---------------------------------------------------------------------------------------+---------------------------------------------------------------+
; Rule R102: External reset signals should be synchronized using two cascaded registers ; axi4_arstn                                                    ;
;  Reset signal destination node(s) list                                                ; axi4_ar_buffer:ar|axi_timed_buffer_rab:u_buffer|elements[2]   ;
;  Reset signal destination node(s) list                                                ; axi4_ar_buffer:ar|axi_timed_buffer_rab:u_buffer|elements[0]   ;
;  Reset signal destination node(s) list                                                ; axi4_ar_buffer:ar|axi_timed_buffer_rab:u_buffer|counter[3][2] ;
;  Reset signal destination node(s) list                                                ; axi4_ar_buffer:ar|axi_timed_buffer_rab:u_buffer|elements[1]   ;
;  Reset signal destination node(s) list                                                ; axi4_ar_buffer:ar|axi_timed_buffer_rab:u_buffer|counter[0][1] ;
;  Reset signal destination node(s) list                                                ; axi4_ar_buffer:ar|axi_timed_buffer_rab:u_buffer|counter[0][2] ;
;  Reset signal destination node(s) list                                                ; axi4_ar_buffer:ar|axi_timed_buffer_rab:u_buffer|counter[0][0] ;
;  Reset signal destination node(s) list                                                ; axi4_ar_buffer:ar|axi_timed_buffer_rab:u_buffer|pointer_in[0] ;
;  Reset signal destination node(s) list                                                ; axi4_ar_buffer:ar|axi_timed_buffer_rab:u_buffer|pointer_in[1] ;
;  Reset signal destination node(s) list                                                ; axi4_ar_buffer:ar|axi_timed_buffer_rab:u_buffer|counter[1][1] ;
+---------------------------------------------------------------------------------------+---------------------------------------------------------------+


+----------------------------------------------------------------------------------------------------------------------------------------------+
; Information only Violations                                                                                                                  ;
+------------------------------------------------------------------+-----------------------------------------------------------------+---------+
; Rule name                                                        ; Name                                                            ; Fan-Out ;
+------------------------------------------------------------------+-----------------------------------------------------------------+---------+
; Rule T101: Nodes with more than the specified number of fan-outs ; axi4_ar_buffer:ar|axi_timed_buffer_rab:u_buffer|buffer[3][23]~3 ; 63      ;
; Rule T101: Nodes with more than the specified number of fan-outs ; axi4_ar_buffer:ar|axi_timed_buffer_rab:u_buffer|buffer[0][53]~2 ; 63      ;
; Rule T101: Nodes with more than the specified number of fan-outs ; axi4_arstn~inputclkctrl                                         ; 955     ;
; Rule T101: Nodes with more than the specified number of fan-outs ; axi4_aclk~inputclkctrl                                          ; 955     ;
; Rule T101: Nodes with more than the specified number of fan-outs ; axi4_ar_buffer:ar|axi_timed_buffer_rab:u_buffer|buffer[1][53]~1 ; 63      ;
; Rule T101: Nodes with more than the specified number of fan-outs ; axi4_ar_buffer:ar|axi_timed_buffer_rab:u_buffer|pointer_out[0]  ; 98      ;
; Rule T101: Nodes with more than the specified number of fan-outs ; axi4_ar_buffer:ar|axi_timed_buffer_rab:u_buffer|pointer_out[1]  ; 97      ;
; Rule T101: Nodes with more than the specified number of fan-outs ; axi4_ar_buffer:ar|axi_timed_buffer_rab:u_buffer|buffer[2][53]~0 ; 63      ;
; Rule T101: Nodes with more than the specified number of fan-outs ; axi4_r_buffer:r|axi_buffer_rab:u_buffer|Decoder0~0              ; 43      ;
; Rule T101: Nodes with more than the specified number of fan-outs ; axi4_r_buffer:r|axi_buffer_rab:u_buffer|pointer_out[1]          ; 66      ;
; Rule T101: Nodes with more than the specified number of fan-outs ; axi4_r_buffer:r|axi_buffer_rab:u_buffer|pointer_out[0]          ; 66      ;
; Rule T101: Nodes with more than the specified number of fan-outs ; axi4_r_buffer:r|axi_buffer_rab:u_buffer|Decoder0~1              ; 43      ;
; Rule T101: Nodes with more than the specified number of fan-outs ; axi4_r_buffer:r|axi_buffer_rab:u_buffer|Decoder0~2              ; 43      ;
; Rule T101: Nodes with more than the specified number of fan-outs ; axi4_r_buffer:r|axi_buffer_rab:u_buffer|Decoder0~3              ; 43      ;
; Rule T101: Nodes with more than the specified number of fan-outs ; axi4_aw_buffer:aw|axi_timed_buffer_rab:u_buffer|pointer_out[1]  ; 109     ;
; Rule T101: Nodes with more than the specified number of fan-outs ; axi4_aw_buffer:aw|axi_timed_buffer_rab:u_buffer|pointer_out[0]  ; 110     ;
; Rule T101: Nodes with more than the specified number of fan-outs ; axi4_aw_buffer:aw|axi_timed_buffer_rab:u_buffer|buffer[0][61]~2 ; 71      ;
; Rule T101: Nodes with more than the specified number of fan-outs ; axi4_aw_buffer:aw|axi_timed_buffer_rab:u_buffer|buffer[2][61]~0 ; 71      ;
; Rule T101: Nodes with more than the specified number of fan-outs ; axi4_aw_buffer:aw|axi_timed_buffer_rab:u_buffer|buffer[3][62]~3 ; 71      ;
; Rule T101: Nodes with more than the specified number of fan-outs ; axi4_aw_buffer:aw|axi_timed_buffer_rab:u_buffer|buffer[1][61]~1 ; 71      ;
; Rule T101: Nodes with more than the specified number of fan-outs ; axi4_w_buffer:w|axi_buffer_rab:u_input_buf|Decoder0~0           ; 41      ;
; Rule T101: Nodes with more than the specified number of fan-outs ; axi4_w_buffer:w|axi_buffer_rab:u_input_buf|pointer_out[1]       ; 63      ;
; Rule T101: Nodes with more than the specified number of fan-outs ; axi4_w_buffer:w|axi_buffer_rab:u_input_buf|pointer_out[0]       ; 63      ;
; Rule T101: Nodes with more than the specified number of fan-outs ; axi4_w_buffer:w|axi_buffer_rab:u_input_buf|Decoder0~1           ; 41      ;
; Rule T101: Nodes with more than the specified number of fan-outs ; axi4_w_buffer:w|axi_buffer_rab:u_input_buf|Decoder0~2           ; 41      ;
; Rule T101: Nodes with more than the specified number of fan-outs ; axi4_w_buffer:w|axi_buffer_rab:u_input_buf|Decoder0~3           ; 41      ;
; Rule T102: Top nodes with the highest number of fan-outs         ; axi4_aclk~inputclkctrl                                          ; 955     ;
; Rule T102: Top nodes with the highest number of fan-outs         ; axi4_arstn~inputclkctrl                                         ; 955     ;
; Rule T102: Top nodes with the highest number of fan-outs         ; axi4_aw_buffer:aw|axi_timed_buffer_rab:u_buffer|pointer_out[0]  ; 110     ;
; Rule T102: Top nodes with the highest number of fan-outs         ; axi4_aw_buffer:aw|axi_timed_buffer_rab:u_buffer|pointer_out[1]  ; 109     ;
; Rule T102: Top nodes with the highest number of fan-outs         ; axi4_ar_buffer:ar|axi_timed_buffer_rab:u_buffer|pointer_out[0]  ; 98      ;
; Rule T102: Top nodes with the highest number of fan-outs         ; axi4_ar_buffer:ar|axi_timed_buffer_rab:u_buffer|pointer_out[1]  ; 97      ;
; Rule T102: Top nodes with the highest number of fan-outs         ; axi4_aw_buffer:aw|axi_timed_buffer_rab:u_buffer|buffer[3][62]~3 ; 71      ;
; Rule T102: Top nodes with the highest number of fan-outs         ; axi4_aw_buffer:aw|axi_timed_buffer_rab:u_buffer|buffer[1][61]~1 ; 71      ;
; Rule T102: Top nodes with the highest number of fan-outs         ; axi4_aw_buffer:aw|axi_timed_buffer_rab:u_buffer|buffer[2][61]~0 ; 71      ;
; Rule T102: Top nodes with the highest number of fan-outs         ; axi4_aw_buffer:aw|axi_timed_buffer_rab:u_buffer|buffer[0][61]~2 ; 71      ;
; Rule T102: Top nodes with the highest number of fan-outs         ; axi4_r_buffer:r|axi_buffer_rab:u_buffer|pointer_out[1]          ; 66      ;
; Rule T102: Top nodes with the highest number of fan-outs         ; axi4_r_buffer:r|axi_buffer_rab:u_buffer|pointer_out[0]          ; 66      ;
; Rule T102: Top nodes with the highest number of fan-outs         ; axi4_ar_buffer:ar|axi_timed_buffer_rab:u_buffer|buffer[2][53]~0 ; 63      ;
; Rule T102: Top nodes with the highest number of fan-outs         ; axi4_w_buffer:w|axi_buffer_rab:u_input_buf|pointer_out[0]       ; 63      ;
; Rule T102: Top nodes with the highest number of fan-outs         ; axi4_ar_buffer:ar|axi_timed_buffer_rab:u_buffer|buffer[3][23]~3 ; 63      ;
; Rule T102: Top nodes with the highest number of fan-outs         ; axi4_ar_buffer:ar|axi_timed_buffer_rab:u_buffer|buffer[0][53]~2 ; 63      ;
; Rule T102: Top nodes with the highest number of fan-outs         ; axi4_ar_buffer:ar|axi_timed_buffer_rab:u_buffer|buffer[1][53]~1 ; 63      ;
; Rule T102: Top nodes with the highest number of fan-outs         ; axi4_w_buffer:w|axi_buffer_rab:u_input_buf|pointer_out[1]       ; 63      ;
; Rule T102: Top nodes with the highest number of fan-outs         ; axi4_r_buffer:r|axi_buffer_rab:u_buffer|Decoder0~0              ; 43      ;
; Rule T102: Top nodes with the highest number of fan-outs         ; axi4_r_buffer:r|axi_buffer_rab:u_buffer|Decoder0~2              ; 43      ;
; Rule T102: Top nodes with the highest number of fan-outs         ; axi4_r_buffer:r|axi_buffer_rab:u_buffer|Decoder0~3              ; 43      ;
; Rule T102: Top nodes with the highest number of fan-outs         ; axi4_r_buffer:r|axi_buffer_rab:u_buffer|Decoder0~1              ; 43      ;
; Rule T102: Top nodes with the highest number of fan-outs         ; axi4_w_buffer:w|axi_buffer_rab:u_input_buf|Decoder0~0           ; 41      ;
; Rule T102: Top nodes with the highest number of fan-outs         ; axi4_w_buffer:w|axi_buffer_rab:u_input_buf|Decoder0~1           ; 41      ;
; Rule T102: Top nodes with the highest number of fan-outs         ; axi4_w_buffer:w|axi_buffer_rab:u_input_buf|Decoder0~2           ; 41      ;
; Rule T102: Top nodes with the highest number of fan-outs         ; axi4_w_buffer:w|axi_buffer_rab:u_input_buf|Decoder0~3           ; 41      ;
; Rule T102: Top nodes with the highest number of fan-outs         ; axi4_b_buffer:b|axi_buffer_rab:u_buffer|pointer_out[1]          ; 17      ;
; Rule T102: Top nodes with the highest number of fan-outs         ; axi4_b_buffer:b|axi_buffer_rab:u_buffer|pointer_out[0]          ; 16      ;
; Rule T102: Top nodes with the highest number of fan-outs         ; axi4_b_buffer:b|axi_buffer_rab:u_buffer|Decoder0~3              ; 10      ;
; Rule T102: Top nodes with the highest number of fan-outs         ; axi4_b_buffer:b|axi_buffer_rab:u_buffer|Decoder0~2              ; 10      ;
; Rule T102: Top nodes with the highest number of fan-outs         ; axi4_b_buffer:b|axi_buffer_rab:u_buffer|Decoder0~0              ; 10      ;
; Rule T102: Top nodes with the highest number of fan-outs         ; axi4_b_buffer:b|axi_buffer_rab:u_buffer|Decoder0~1              ; 10      ;
; Rule T102: Top nodes with the highest number of fan-outs         ; axi4_r_buffer:r|axi_buffer_rab:u_buffer|Equal0~0                ; 9       ;
; Rule T102: Top nodes with the highest number of fan-outs         ; axi4_w_buffer:w|axi_buffer_rab:u_input_buf|Equal0~0             ; 9       ;
; Rule T102: Top nodes with the highest number of fan-outs         ; axi4_b_buffer:b|axi_buffer_rab:u_buffer|Equal0~0                ; 9       ;
; Rule T102: Top nodes with the highest number of fan-outs         ; axi4_ar_buffer:ar|axi_timed_buffer_rab:u_buffer|Equal0~0        ; 7       ;
; Rule T102: Top nodes with the highest number of fan-outs         ; axi4_aw_buffer:aw|axi_timed_buffer_rab:u_buffer|Equal0~0        ; 7       ;
; Rule T102: Top nodes with the highest number of fan-outs         ; axi4_aw_buffer:aw|axi_timed_buffer_rab:u_buffer|valid_out~0     ; 7       ;
; Rule T102: Top nodes with the highest number of fan-outs         ; axi4_ar_buffer:ar|axi_timed_buffer_rab:u_buffer|elements[0]     ; 7       ;
; Rule T102: Top nodes with the highest number of fan-outs         ; axi4_ar_buffer:ar|axi_timed_buffer_rab:u_buffer|elements[1]     ; 6       ;
; Rule T102: Top nodes with the highest number of fan-outs         ; axi4_w_buffer:w|axi_buffer_rab:u_input_buf|pointer_in[0]        ; 6       ;
; Rule T102: Top nodes with the highest number of fan-outs         ; axi4_ar_buffer:ar|axi_timed_buffer_rab:u_buffer|pointer_in[0]   ; 6       ;
; Rule T102: Top nodes with the highest number of fan-outs         ; axi4_b_buffer:b|axi_buffer_rab:u_buffer|pointer_in[0]           ; 6       ;
; Rule T102: Top nodes with the highest number of fan-outs         ; axi4_r_buffer:r|axi_buffer_rab:u_buffer|pointer_in[0]           ; 6       ;
; Rule T102: Top nodes with the highest number of fan-outs         ; axi4_aw_buffer:aw|axi_timed_buffer_rab:u_buffer|pointer_in[0]   ; 6       ;
; Rule T102: Top nodes with the highest number of fan-outs         ; axi4_aw_buffer:aw|axi_timed_buffer_rab:u_buffer|elements[0]     ; 6       ;
; Rule T102: Top nodes with the highest number of fan-outs         ; axi4_aw_buffer:aw|axi_timed_buffer_rab:u_buffer|pointer_in[1]   ; 5       ;
; Rule T102: Top nodes with the highest number of fan-outs         ; axi4_ar_buffer:ar|axi_timed_buffer_rab:u_buffer|elements[2]     ; 5       ;
; Rule T102: Top nodes with the highest number of fan-outs         ; axi4_r_buffer:r|axi_buffer_rab:u_buffer|pointer_in[1]           ; 5       ;
; Rule T102: Top nodes with the highest number of fan-outs         ; axi4_aw_buffer:aw|axi_timed_buffer_rab:u_buffer|elements[1]     ; 5       ;
+------------------------------------------------------------------+-----------------------------------------------------------------+---------+


+---------------------------+
; Design Assistant Messages ;
+---------------------------+
Info: *******************************************************************
Info: Running Quartus II 64-Bit Design Assistant
    Info: Version 13.0.1 Build 232 06/12/2013 Service Pack 1 SJ Full Version
    Info: Copyright (C) 1991-2013 Altera Corporation. All rights reserved.
    Info: Your use of Altera Corporation's design tools, logic functions 
    Info: and other software and tools, and its AMPP partner logic 
    Info: functions, and any output files from any of the foregoing 
    Info: (including device programming or simulation files), and any 
    Info: associated documentation or information are expressly subject 
    Info: to the terms and conditions of the Altera Program License 
    Info: Subscription Agreement, Altera MegaCore Function License 
    Info: Agreement, or other applicable license agreement, including, 
    Info: without limitation, that your use is for the sole purpose of 
    Info: programming logic devices manufactured by Altera and sold by 
    Info: Altera or its authorized distributors.  Please refer to the 
    Info: applicable agreement for further details.
    Info: Processing started: Wed Feb  6 14:40:10 2019
Info: Command: quartus_drc axi_va_pa_ip -c axi_va_pa_ip
Info (332104): Reading SDC File: 'axi_va_pa_ip.sdc'
Warning (332174): Ignored filter at axi_va_pa_ip.sdc(1): CLK could not be matched with a port
Warning (332049): Ignored create_clock at axi_va_pa_ip.sdc(1): Argument <targets> is an empty collection
    Info (332050): create_clock -name CLK [get_ports {CLK}] -period 100MHz
Warning (332174): Ignored filter at axi_va_pa_ip.sdc(2): CLOCK_50 could not be matched with a port
Warning (332049): Ignored create_clock at axi_va_pa_ip.sdc(2): Argument <targets> is an empty collection
    Info (332050): create_clock -name CLK_50 [get_ports {CLOCK_50}] -period 100MHz
Warning (332174): Ignored filter at axi_va_pa_ip.sdc(3): CPUCLK|q could not be matched with a pin
Warning (332049): Ignored create_generated_clock at axi_va_pa_ip.sdc(3): Argument <targets> is an empty collection
    Info (332050): create_generated_clock -divide_by 2 -source [get_ports CLK] -name CPUCLK [get_pins CPUCLK|q]
Warning (332049): Ignored create_generated_clock at axi_va_pa_ip.sdc(3): Argument -source is an empty collection
Warning (332174): Ignored filter at axi_va_pa_ip.sdc(4): system:SYS|CPUCLK|q could not be matched with a pin
Warning (332049): Ignored create_generated_clock at axi_va_pa_ip.sdc(4): Argument <targets> is an empty collection
    Info (332050): create_generated_clock -divide_by 2 -source [get_ports CLOCK_50] -name CPUCLK [get_pins system:SYS|CPUCLK|q]
Warning (332049): Ignored create_generated_clock at axi_va_pa_ip.sdc(4): Argument -source is an empty collection
Info (332144): No user constrained base clocks found in the design
Info (332143): No user constrained clock uncertainty found in the design. Calling "derive_clock_uncertainty"
Info (332123): Deriving Clock Uncertainty. Please refer to report_sdc in TimeQuest to see clock uncertainties.
Warning (308023): (Medium) Rule R102: External reset signals should be synchronized using two cascaded registers. Found 1 node(s) related to this rule.
    Warning (308010): Node  "axi4_arstn"
Info (308046): (Information) Rule T101: Nodes with more than the specified number of fan-outs. (Value defined:30). Found 26 node(s) with highest fan-out.
    Info (308011): Node  "axi4_ar_buffer:ar|axi_timed_buffer_rab:u_buffer|buffer[3][23]~3"
    Info (308011): Node  "axi4_ar_buffer:ar|axi_timed_buffer_rab:u_buffer|buffer[0][53]~2"
    Info (308011): Node  "axi4_arstn~inputclkctrl"
    Info (308011): Node  "axi4_aclk~inputclkctrl"
    Info (308011): Node  "axi4_ar_buffer:ar|axi_timed_buffer_rab:u_buffer|buffer[1][53]~1"
    Info (308011): Node  "axi4_ar_buffer:ar|axi_timed_buffer_rab:u_buffer|pointer_out[0]"
    Info (308011): Node  "axi4_ar_buffer:ar|axi_timed_buffer_rab:u_buffer|pointer_out[1]"
    Info (308011): Node  "axi4_ar_buffer:ar|axi_timed_buffer_rab:u_buffer|buffer[2][53]~0"
    Info (308011): Node  "axi4_r_buffer:r|axi_buffer_rab:u_buffer|Decoder0~0"
    Info (308011): Node  "axi4_r_buffer:r|axi_buffer_rab:u_buffer|pointer_out[1]"
    Info (308011): Node  "axi4_r_buffer:r|axi_buffer_rab:u_buffer|pointer_out[0]"
    Info (308011): Node  "axi4_r_buffer:r|axi_buffer_rab:u_buffer|Decoder0~1"
    Info (308011): Node  "axi4_r_buffer:r|axi_buffer_rab:u_buffer|Decoder0~2"
    Info (308011): Node  "axi4_r_buffer:r|axi_buffer_rab:u_buffer|Decoder0~3"
    Info (308011): Node  "axi4_aw_buffer:aw|axi_timed_buffer_rab:u_buffer|pointer_out[1]"
    Info (308011): Node  "axi4_aw_buffer:aw|axi_timed_buffer_rab:u_buffer|pointer_out[0]"
    Info (308011): Node  "axi4_aw_buffer:aw|axi_timed_buffer_rab:u_buffer|buffer[0][61]~2"
    Info (308011): Node  "axi4_aw_buffer:aw|axi_timed_buffer_rab:u_buffer|buffer[2][61]~0"
    Info (308011): Node  "axi4_aw_buffer:aw|axi_timed_buffer_rab:u_buffer|buffer[3][62]~3"
    Info (308011): Node  "axi4_aw_buffer:aw|axi_timed_buffer_rab:u_buffer|buffer[1][61]~1"
    Info (308011): Node  "axi4_w_buffer:w|axi_buffer_rab:u_input_buf|Decoder0~0"
    Info (308011): Node  "axi4_w_buffer:w|axi_buffer_rab:u_input_buf|pointer_out[1]"
    Info (308011): Node  "axi4_w_buffer:w|axi_buffer_rab:u_input_buf|pointer_out[0]"
    Info (308011): Node  "axi4_w_buffer:w|axi_buffer_rab:u_input_buf|Decoder0~1"
    Info (308011): Node  "axi4_w_buffer:w|axi_buffer_rab:u_input_buf|Decoder0~2"
    Info (308011): Node  "axi4_w_buffer:w|axi_buffer_rab:u_input_buf|Decoder0~3"
Info (308044): (Information) Rule T102: Top nodes with the highest number of fan-outs. (Value defined:50). Found 50 node(s) with highest fan-out.
    Info (308011): Node  "axi4_aclk~inputclkctrl"
    Info (308011): Node  "axi4_arstn~inputclkctrl"
    Info (308011): Node  "axi4_aw_buffer:aw|axi_timed_buffer_rab:u_buffer|pointer_out[0]"
    Info (308011): Node  "axi4_aw_buffer:aw|axi_timed_buffer_rab:u_buffer|pointer_out[1]"
    Info (308011): Node  "axi4_ar_buffer:ar|axi_timed_buffer_rab:u_buffer|pointer_out[0]"
    Info (308011): Node  "axi4_ar_buffer:ar|axi_timed_buffer_rab:u_buffer|pointer_out[1]"
    Info (308011): Node  "axi4_aw_buffer:aw|axi_timed_buffer_rab:u_buffer|buffer[3][62]~3"
    Info (308011): Node  "axi4_aw_buffer:aw|axi_timed_buffer_rab:u_buffer|buffer[1][61]~1"
    Info (308011): Node  "axi4_aw_buffer:aw|axi_timed_buffer_rab:u_buffer|buffer[2][61]~0"
    Info (308011): Node  "axi4_aw_buffer:aw|axi_timed_buffer_rab:u_buffer|buffer[0][61]~2"
    Info (308011): Node  "axi4_r_buffer:r|axi_buffer_rab:u_buffer|pointer_out[1]"
    Info (308011): Node  "axi4_r_buffer:r|axi_buffer_rab:u_buffer|pointer_out[0]"
    Info (308011): Node  "axi4_ar_buffer:ar|axi_timed_buffer_rab:u_buffer|buffer[2][53]~0"
    Info (308011): Node  "axi4_w_buffer:w|axi_buffer_rab:u_input_buf|pointer_out[0]"
    Info (308011): Node  "axi4_ar_buffer:ar|axi_timed_buffer_rab:u_buffer|buffer[3][23]~3"
    Info (308011): Node  "axi4_ar_buffer:ar|axi_timed_buffer_rab:u_buffer|buffer[0][53]~2"
    Info (308011): Node  "axi4_ar_buffer:ar|axi_timed_buffer_rab:u_buffer|buffer[1][53]~1"
    Info (308011): Node  "axi4_w_buffer:w|axi_buffer_rab:u_input_buf|pointer_out[1]"
    Info (308011): Node  "axi4_r_buffer:r|axi_buffer_rab:u_buffer|Decoder0~0"
    Info (308011): Node  "axi4_r_buffer:r|axi_buffer_rab:u_buffer|Decoder0~2"
    Info (308011): Node  "axi4_r_buffer:r|axi_buffer_rab:u_buffer|Decoder0~3"
    Info (308011): Node  "axi4_r_buffer:r|axi_buffer_rab:u_buffer|Decoder0~1"
    Info (308011): Node  "axi4_w_buffer:w|axi_buffer_rab:u_input_buf|Decoder0~0"
    Info (308011): Node  "axi4_w_buffer:w|axi_buffer_rab:u_input_buf|Decoder0~1"
    Info (308011): Node  "axi4_w_buffer:w|axi_buffer_rab:u_input_buf|Decoder0~2"
    Info (308011): Node  "axi4_w_buffer:w|axi_buffer_rab:u_input_buf|Decoder0~3"
    Info (308011): Node  "axi4_b_buffer:b|axi_buffer_rab:u_buffer|pointer_out[1]"
    Info (308011): Node  "axi4_b_buffer:b|axi_buffer_rab:u_buffer|pointer_out[0]"
    Info (308011): Node  "axi4_b_buffer:b|axi_buffer_rab:u_buffer|Decoder0~3"
    Info (308011): Node  "axi4_b_buffer:b|axi_buffer_rab:u_buffer|Decoder0~2"
    Info (308002): Truncated list of Design Assistant messages to 30 messages. Go to sections under Design Assistant section of Compilation Report for complete lists of Design Assistant messages generated.
Info (308007): Design Assistant information: finished post-fitting analysis of current design -- generated 76 information messages and 1 warning messages
Info: Quartus II 64-Bit Design Assistant was successful. 0 errors, 12 warnings
    Info: Peak virtual memory: 856 megabytes
    Info: Processing ended: Wed Feb  6 14:40:11 2019
    Info: Elapsed time: 00:00:01
    Info: Total CPU time (on all processors): 00:00:01


EDA Netlist Writer report for axi_va_pa_ip
Wed Feb  6 14:40:29 2019
Quartus II 64-Bit Version 13.0.1 Build 232 06/12/2013 Service Pack 1 SJ Full Version


---------------------
; Table of Contents ;
---------------------
  1. Legal Notice
  2. EDA Netlist Writer Summary
  3. Simulation Settings
  4. Simulation Generated Files
  5. EDA Netlist Writer Messages



----------------
; Legal Notice ;
----------------
Copyright (C) 1991-2013 Altera Corporation
Your use of Altera Corporation's design tools, logic functions 
and other software and tools, and its AMPP partner logic 
functions, and any output files from any of the foregoing 
(including device programming or simulation files), and any 
associated documentation or information are expressly subject 
to the terms and conditions of the Altera Program License 
Subscription Agreement, Altera MegaCore Function License 
Agreement, or other applicable license agreement, including, 
without limitation, that your use is for the sole purpose of 
programming logic devices manufactured by Altera and sold by 
Altera or its authorized distributors.  Please refer to the 
applicable agreement for further details.



+-------------------------------------------------------------------+
; EDA Netlist Writer Summary                                        ;
+---------------------------+---------------------------------------+
; EDA Netlist Writer Status ; Successful - Wed Feb  6 14:40:29 2019 ;
; Revision Name             ; axi_va_pa_ip                          ;
; Top-level Entity Name     ; axi_va_pa_ip                          ;
; Family                    ; Cyclone IV E                          ;
; Simulation Files Creation ; Successful                            ;
+---------------------------+---------------------------------------+


+------------------------------------------------------------------------------------------------------------------------+
; Simulation Settings                                                                                                    ;
+---------------------------------------------------------------------------------------------------+--------------------+
; Option                                                                                            ; Setting            ;
+---------------------------------------------------------------------------------------------------+--------------------+
; Tool Name                                                                                         ; ModelSim (Verilog) ;
; Generate netlist for functional simulation only                                                   ; On                 ;
; Truncate long hierarchy paths                                                                     ; Off                ;
; Map illegal HDL characters                                                                        ; Off                ;
; Flatten buses into individual nodes                                                               ; Off                ;
; Maintain hierarchy                                                                                ; On                 ;
; Bring out device-wide set/reset signals as ports                                                  ; Off                ;
; Enable glitch filtering                                                                           ; Off                ;
; Do not write top level VHDL entity                                                                ; Off                ;
; Disable detection of setup and hold time violations in the input registers of bi-directional pins ; Off                ;
; Architecture name in VHDL output netlist                                                          ; structure          ;
; Generate third-party EDA tool command script for RTL functional simulation                        ; Off                ;
; Generate third-party EDA tool command script for gate-level simulation                            ; Off                ;
+---------------------------------------------------------------------------------------------------+--------------------+


+--------------------------------------------------------------------------------------------+
; Simulation Generated Files                                                                 ;
+--------------------------------------------------------------------------------------------+
; Generated Files                                                                            ;
+--------------------------------------------------------------------------------------------+
; /home/ecegrid/a/mg248/ece437/processors/._axi_va_pa_ip/simulation/modelsim/axi_va_pa_ip.vo ;
+--------------------------------------------------------------------------------------------+


+-----------------------------+
; EDA Netlist Writer Messages ;
+-----------------------------+
Info: *******************************************************************
Info: Running Quartus II 64-Bit EDA Netlist Writer
    Info: Version 13.0.1 Build 232 06/12/2013 Service Pack 1 SJ Full Version
    Info: Copyright (C) 1991-2013 Altera Corporation. All rights reserved.
    Info: Your use of Altera Corporation's design tools, logic functions 
    Info: and other software and tools, and its AMPP partner logic 
    Info: functions, and any output files from any of the foregoing 
    Info: (including device programming or simulation files), and any 
    Info: associated documentation or information are expressly subject 
    Info: to the terms and conditions of the Altera Program License 
    Info: Subscription Agreement, Altera MegaCore Function License 
    Info: Agreement, or other applicable license agreement, including, 
    Info: without limitation, that your use is for the sole purpose of 
    Info: programming logic devices manufactured by Altera and sold by 
    Info: Altera or its authorized distributors.  Please refer to the 
    Info: applicable agreement for further details.
    Info: Processing started: Wed Feb  6 14:40:27 2019
Info: Command: quartus_eda axi_va_pa_ip -c axi_va_pa_ip
Info (204019): Generated file axi_va_pa_ip.vo in folder "/home/ecegrid/a/mg248/ece437/processors/._axi_va_pa_ip/simulation/modelsim/" for EDA simulation tool
Info: Quartus II 64-Bit EDA Netlist Writer was successful. 0 errors, 0 warnings
    Info: Peak virtual memory: 923 megabytes
    Info: Processing ended: Wed Feb  6 14:40:29 2019
    Info: Elapsed time: 00:00:02
    Info: Total CPU time (on all processors): 00:00:01


Fitter report for axi_va_pa_ip
Wed Feb  6 14:40:05 2019
Quartus II 64-Bit Version 13.0.1 Build 232 06/12/2013 Service Pack 1 SJ Full Version


---------------------
; Table of Contents ;
---------------------
  1. Legal Notice
  2. Fitter Summary
  3. Fitter Settings
  4. Parallel Compilation
  5. I/O Assignment Warnings
  6. Fitter Netlist Optimizations
  7. Ignored Assignments
  8. Incremental Compilation Preservation Summary
  9. Incremental Compilation Partition Settings
 10. Incremental Compilation Placement Preservation
 11. Pin-Out File
 12. Fitter Resource Usage Summary
 13. Fitter Partition Statistics
 14. Input Pins
 15. Output Pins
 16. Dual Purpose and Dedicated Pins
 17. I/O Bank Usage
 18. All Package Pins
 19. Fitter Resource Utilization by Entity
 20. Delay Chain Summary
 21. Pad To Core Delay Chain Fanout
 22. Control Signals
 23. Global & Other Fast Signals
 24. Non-Global High Fan-Out Signals
 25. Other Routing Usage Summary
 26. LAB Logic Elements
 27. LAB-wide Signals
 28. LAB Signals Sourced
 29. LAB Signals Sourced Out
 30. LAB Distinct Inputs
 31. I/O Rules Summary
 32. I/O Rules Details
 33. I/O Rules Matrix
 34. Fitter Device Options
 35. Operating Settings and Conditions
 36. Fitter Messages
 37. Fitter Suppressed Messages



----------------
; Legal Notice ;
----------------
Copyright (C) 1991-2013 Altera Corporation
Your use of Altera Corporation's design tools, logic functions 
and other software and tools, and its AMPP partner logic 
functions, and any output files from any of the foregoing 
(including device programming or simulation files), and any 
associated documentation or information are expressly subject 
to the terms and conditions of the Altera Program License 
Subscription Agreement, Altera MegaCore Function License 
Agreement, or other applicable license agreement, including, 
without limitation, that your use is for the sole purpose of 
programming logic devices manufactured by Altera and sold by 
Altera or its authorized distributors.  Please refer to the 
applicable agreement for further details.



+---------------------------------------------------------------------------------------+
; Fitter Summary                                                                        ;
+------------------------------------+--------------------------------------------------+
; Fitter Status                      ; Successful - Wed Feb  6 14:40:05 2019            ;
; Quartus II 64-Bit Version          ; 13.0.1 Build 232 06/12/2013 SP 1 SJ Full Version ;
; Revision Name                      ; axi_va_pa_ip                                     ;
; Top-level Entity Name              ; axi_va_pa_ip                                     ;
; Family                             ; Cyclone IV E                                     ;
; Device                             ; EP4CE115F29C8                                    ;
; Timing Models                      ; Final                                            ;
; Total logic elements               ; 940 / 114,480 ( < 1 % )                          ;
;     Total combinational functions  ; 615 / 114,480 ( < 1 % )                          ;
;     Dedicated logic registers      ; 771 / 114,480 ( < 1 % )                          ;
; Total registers                    ; 955                                              ;
; Total pins                         ; 470 / 529 ( 89 % )                               ;
; Total virtual pins                 ; 0                                                ;
; Total memory bits                  ; 0 / 3,981,312 ( 0 % )                            ;
; Embedded Multiplier 9-bit elements ; 0 / 532 ( 0 % )                                  ;
; Total PLLs                         ; 0 / 4 ( 0 % )                                    ;
+------------------------------------+--------------------------------------------------+


+------------------------------------------------------------------------------------------------------------------------------------------------------------+
; Fitter Settings                                                                                                                                            ;
+----------------------------------------------------------------------------+---------------------------------------+---------------------------------------+
; Option                                                                     ; Setting                               ; Default Value                         ;
+----------------------------------------------------------------------------+---------------------------------------+---------------------------------------+
; Device                                                                     ; EP4CE115F29C8                         ;                                       ;
; Use smart compilation                                                      ; On                                    ; Off                                   ;
; Maximum processors allowed for parallel compilation                        ; 4                                     ;                                       ;
; Fit Attempts to Skip                                                       ; 0                                     ; 0.0                                   ;
; Enable parallel Assembler and TimeQuest Timing Analyzer during compilation ; On                                    ; On                                    ;
; Enable compact report table                                                ; Off                                   ; Off                                   ;
; Auto Merge PLLs                                                            ; On                                    ; On                                    ;
; Router Timing Optimization Level                                           ; Normal                                ; Normal                                ;
; Perform Clocking Topology Analysis During Routing                          ; Off                                   ; Off                                   ;
; Placement Effort Multiplier                                                ; 1.0                                   ; 1.0                                   ;
; Router Effort Multiplier                                                   ; 1.0                                   ; 1.0                                   ;
; Optimize Hold Timing                                                       ; All Paths                             ; All Paths                             ;
; Optimize Multi-Corner Timing                                               ; On                                    ; On                                    ;
; PowerPlay Power Optimization                                               ; Normal compilation                    ; Normal compilation                    ;
; SSN Optimization                                                           ; Off                                   ; Off                                   ;
; Optimize Timing                                                            ; Normal compilation                    ; Normal compilation                    ;
; Optimize Timing for ECOs                                                   ; Off                                   ; Off                                   ;
; Regenerate full fit report during ECO compiles                             ; Off                                   ; Off                                   ;
; Optimize IOC Register Placement for Timing                                 ; Normal                                ; Normal                                ;
; Limit to One Fitting Attempt                                               ; Off                                   ; Off                                   ;
; Final Placement Optimizations                                              ; Automatically                         ; Automatically                         ;
; Fitter Aggressive Routability Optimizations                                ; Automatically                         ; Automatically                         ;
; Fitter Initial Placement Seed                                              ; 1                                     ; 1                                     ;
; PCI I/O                                                                    ; Off                                   ; Off                                   ;
; Weak Pull-Up Resistor                                                      ; Off                                   ; Off                                   ;
; Enable Bus-Hold Circuitry                                                  ; Off                                   ; Off                                   ;
; Auto Packed Registers                                                      ; Auto                                  ; Auto                                  ;
; Auto Delay Chains                                                          ; On                                    ; On                                    ;
; Auto Delay Chains for High Fanout Input Pins                               ; Off                                   ; Off                                   ;
; Allow Single-ended Buffer for Differential-XSTL Input                      ; Off                                   ; Off                                   ;
; Treat Bidirectional Pin as Output Pin                                      ; Off                                   ; Off                                   ;
; Perform Physical Synthesis for Combinational Logic for Fitting             ; Off                                   ; Off                                   ;
; Perform Physical Synthesis for Combinational Logic for Performance         ; Off                                   ; Off                                   ;
; Perform Register Duplication for Performance                               ; Off                                   ; Off                                   ;
; Perform Logic to Memory Mapping for Fitting                                ; Off                                   ; Off                                   ;
; Perform Register Retiming for Performance                                  ; Off                                   ; Off                                   ;
; Perform Asynchronous Signal Pipelining                                     ; Off                                   ; Off                                   ;
; Fitter Effort                                                              ; Auto Fit                              ; Auto Fit                              ;
; Physical Synthesis Effort Level                                            ; Normal                                ; Normal                                ;
; Logic Cell Insertion - Logic Duplication                                   ; Auto                                  ; Auto                                  ;
; Auto Register Duplication                                                  ; Auto                                  ; Auto                                  ;
; Auto Global Clock                                                          ; On                                    ; On                                    ;
; Auto Global Register Control Signals                                       ; On                                    ; On                                    ;
; Reserve all unused pins                                                    ; As input tri-stated with weak pull-up ; As input tri-stated with weak pull-up ;
; Synchronizer Identification                                                ; Off                                   ; Off                                   ;
; Enable Beneficial Skew Optimization                                        ; On                                    ; On                                    ;
; Optimize Design for Metastability                                          ; On                                    ; On                                    ;
; Force Fitter to Avoid Periphery Placement Warnings                         ; Off                                   ; Off                                   ;
; Enable input tri-state on active configuration pins in user mode           ; Off                                   ; Off                                   ;
+----------------------------------------------------------------------------+---------------------------------------+---------------------------------------+


+------------------------------------------+
; Parallel Compilation                     ;
+----------------------------+-------------+
; Processors                 ; Number      ;
+----------------------------+-------------+
; Number detected on machine ; 40          ;
; Maximum allowed            ; 4           ;
;                            ;             ;
; Average used               ; 2.84        ;
; Maximum used               ; 4           ;
;                            ;             ;
; Usage by Processor         ; % Time Used ;
;     Processor 1            ; 100.0%      ;
;     Processors 2-4         ;  61.4%      ;
;     Processors 5-40        ;   0.0%      ;
+----------------------------+-------------+


+----------------------------------------------------+
; I/O Assignment Warnings                            ;
+--------------------+-------------------------------+
; Pin Name           ; Reason                        ;
+--------------------+-------------------------------+
; s_axi4_arready     ; Incomplete set of assignments ;
; m_axi4_arid[0]     ; Incomplete set of assignments ;
; m_axi4_arid[1]     ; Incomplete set of assignments ;
; m_axi4_arid[2]     ; Incomplete set of assignments ;
; m_axi4_arid[3]     ; Incomplete set of assignments ;
; m_axi4_araddr[0]   ; Incomplete set of assignments ;
; m_axi4_araddr[1]   ; Incomplete set of assignments ;
; m_axi4_araddr[2]   ; Incomplete set of assignments ;
; m_axi4_araddr[3]   ; Incomplete set of assignments ;
; m_axi4_araddr[4]   ; Incomplete set of assignments ;
; m_axi4_araddr[5]   ; Incomplete set of assignments ;
; m_axi4_araddr[6]   ; Incomplete set of assignments ;
; m_axi4_araddr[7]   ; Incomplete set of assignments ;
; m_axi4_araddr[8]   ; Incomplete set of assignments ;
; m_axi4_araddr[9]   ; Incomplete set of assignments ;
; m_axi4_araddr[10]  ; Incomplete set of assignments ;
; m_axi4_araddr[11]  ; Incomplete set of assignments ;
; m_axi4_araddr[12]  ; Incomplete set of assignments ;
; m_axi4_araddr[13]  ; Incomplete set of assignments ;
; m_axi4_araddr[14]  ; Incomplete set of assignments ;
; m_axi4_araddr[15]  ; Incomplete set of assignments ;
; m_axi4_araddr[16]  ; Incomplete set of assignments ;
; m_axi4_araddr[17]  ; Incomplete set of assignments ;
; m_axi4_araddr[18]  ; Incomplete set of assignments ;
; m_axi4_araddr[19]  ; Incomplete set of assignments ;
; m_axi4_araddr[20]  ; Incomplete set of assignments ;
; m_axi4_araddr[21]  ; Incomplete set of assignments ;
; m_axi4_araddr[22]  ; Incomplete set of assignments ;
; m_axi4_araddr[23]  ; Incomplete set of assignments ;
; m_axi4_araddr[24]  ; Incomplete set of assignments ;
; m_axi4_araddr[25]  ; Incomplete set of assignments ;
; m_axi4_araddr[26]  ; Incomplete set of assignments ;
; m_axi4_araddr[27]  ; Incomplete set of assignments ;
; m_axi4_araddr[28]  ; Incomplete set of assignments ;
; m_axi4_araddr[29]  ; Incomplete set of assignments ;
; m_axi4_araddr[30]  ; Incomplete set of assignments ;
; m_axi4_araddr[31]  ; Incomplete set of assignments ;
; m_axi4_arvalid     ; Incomplete set of assignments ;
; m_axi4_arlen[0]    ; Incomplete set of assignments ;
; m_axi4_arlen[1]    ; Incomplete set of assignments ;
; m_axi4_arlen[2]    ; Incomplete set of assignments ;
; m_axi4_arlen[3]    ; Incomplete set of assignments ;
; m_axi4_arlen[4]    ; Incomplete set of assignments ;
; m_axi4_arlen[5]    ; Incomplete set of assignments ;
; m_axi4_arlen[6]    ; Incomplete set of assignments ;
; m_axi4_arlen[7]    ; Incomplete set of assignments ;
; m_axi4_arsize[0]   ; Incomplete set of assignments ;
; m_axi4_arsize[1]   ; Incomplete set of assignments ;
; m_axi4_arsize[2]   ; Incomplete set of assignments ;
; m_axi4_arburst[0]  ; Incomplete set of assignments ;
; m_axi4_arburst[1]  ; Incomplete set of assignments ;
; m_axi4_arlock      ; Incomplete set of assignments ;
; m_axi4_arprot[0]   ; Incomplete set of assignments ;
; m_axi4_arprot[1]   ; Incomplete set of assignments ;
; m_axi4_arprot[2]   ; Incomplete set of assignments ;
; m_axi4_arcache[0]  ; Incomplete set of assignments ;
; m_axi4_arcache[1]  ; Incomplete set of assignments ;
; m_axi4_arcache[2]  ; Incomplete set of assignments ;
; m_axi4_arcache[3]  ; Incomplete set of assignments ;
; m_axi4_aruser[0]   ; Incomplete set of assignments ;
; m_axi4_aruser[1]   ; Incomplete set of assignments ;
; m_axi4_aruser[2]   ; Incomplete set of assignments ;
; m_axi4_aruser[3]   ; Incomplete set of assignments ;
; s_axi4_rid[0]      ; Incomplete set of assignments ;
; s_axi4_rid[1]      ; Incomplete set of assignments ;
; s_axi4_rid[2]      ; Incomplete set of assignments ;
; s_axi4_rid[3]      ; Incomplete set of assignments ;
; s_axi4_rresp[0]    ; Incomplete set of assignments ;
; s_axi4_rresp[1]    ; Incomplete set of assignments ;
; s_axi4_rdata[0]    ; Incomplete set of assignments ;
; s_axi4_rdata[1]    ; Incomplete set of assignments ;
; s_axi4_rdata[2]    ; Incomplete set of assignments ;
; s_axi4_rdata[3]    ; Incomplete set of assignments ;
; s_axi4_rdata[4]    ; Incomplete set of assignments ;
; s_axi4_rdata[5]    ; Incomplete set of assignments ;
; s_axi4_rdata[6]    ; Incomplete set of assignments ;
; s_axi4_rdata[7]    ; Incomplete set of assignments ;
; s_axi4_rdata[8]    ; Incomplete set of assignments ;
; s_axi4_rdata[9]    ; Incomplete set of assignments ;
; s_axi4_rdata[10]   ; Incomplete set of assignments ;
; s_axi4_rdata[11]   ; Incomplete set of assignments ;
; s_axi4_rdata[12]   ; Incomplete set of assignments ;
; s_axi4_rdata[13]   ; Incomplete set of assignments ;
; s_axi4_rdata[14]   ; Incomplete set of assignments ;
; s_axi4_rdata[15]   ; Incomplete set of assignments ;
; s_axi4_rdata[16]   ; Incomplete set of assignments ;
; s_axi4_rdata[17]   ; Incomplete set of assignments ;
; s_axi4_rdata[18]   ; Incomplete set of assignments ;
; s_axi4_rdata[19]   ; Incomplete set of assignments ;
; s_axi4_rdata[20]   ; Incomplete set of assignments ;
; s_axi4_rdata[21]   ; Incomplete set of assignments ;
; s_axi4_rdata[22]   ; Incomplete set of assignments ;
; s_axi4_rdata[23]   ; Incomplete set of assignments ;
; s_axi4_rdata[24]   ; Incomplete set of assignments ;
; s_axi4_rdata[25]   ; Incomplete set of assignments ;
; s_axi4_rdata[26]   ; Incomplete set of assignments ;
; s_axi4_rdata[27]   ; Incomplete set of assignments ;
; s_axi4_rdata[28]   ; Incomplete set of assignments ;
; s_axi4_rdata[29]   ; Incomplete set of assignments ;
; s_axi4_rdata[30]   ; Incomplete set of assignments ;
; s_axi4_rdata[31]   ; Incomplete set of assignments ;
; s_axi4_rlast       ; Incomplete set of assignments ;
; s_axi4_rvalid      ; Incomplete set of assignments ;
; s_axi4_ruser[0]    ; Incomplete set of assignments ;
; s_axi4_ruser[1]    ; Incomplete set of assignments ;
; s_axi4_ruser[2]    ; Incomplete set of assignments ;
; s_axi4_ruser[3]    ; Incomplete set of assignments ;
; m_axi4_rready      ; Incomplete set of assignments ;
; s_axi4_awready     ; Incomplete set of assignments ;
; m_axi4_awid[0]     ; Incomplete set of assignments ;
; m_axi4_awid[1]     ; Incomplete set of assignments ;
; m_axi4_awid[2]     ; Incomplete set of assignments ;
; m_axi4_awid[3]     ; Incomplete set of assignments ;
; m_axi4_awaddr[0]   ; Incomplete set of assignments ;
; m_axi4_awaddr[1]   ; Incomplete set of assignments ;
; m_axi4_awaddr[2]   ; Incomplete set of assignments ;
; m_axi4_awaddr[3]   ; Incomplete set of assignments ;
; m_axi4_awaddr[4]   ; Incomplete set of assignments ;
; m_axi4_awaddr[5]   ; Incomplete set of assignments ;
; m_axi4_awaddr[6]   ; Incomplete set of assignments ;
; m_axi4_awaddr[7]   ; Incomplete set of assignments ;
; m_axi4_awaddr[8]   ; Incomplete set of assignments ;
; m_axi4_awaddr[9]   ; Incomplete set of assignments ;
; m_axi4_awaddr[10]  ; Incomplete set of assignments ;
; m_axi4_awaddr[11]  ; Incomplete set of assignments ;
; m_axi4_awaddr[12]  ; Incomplete set of assignments ;
; m_axi4_awaddr[13]  ; Incomplete set of assignments ;
; m_axi4_awaddr[14]  ; Incomplete set of assignments ;
; m_axi4_awaddr[15]  ; Incomplete set of assignments ;
; m_axi4_awaddr[16]  ; Incomplete set of assignments ;
; m_axi4_awaddr[17]  ; Incomplete set of assignments ;
; m_axi4_awaddr[18]  ; Incomplete set of assignments ;
; m_axi4_awaddr[19]  ; Incomplete set of assignments ;
; m_axi4_awaddr[20]  ; Incomplete set of assignments ;
; m_axi4_awaddr[21]  ; Incomplete set of assignments ;
; m_axi4_awaddr[22]  ; Incomplete set of assignments ;
; m_axi4_awaddr[23]  ; Incomplete set of assignments ;
; m_axi4_awaddr[24]  ; Incomplete set of assignments ;
; m_axi4_awaddr[25]  ; Incomplete set of assignments ;
; m_axi4_awaddr[26]  ; Incomplete set of assignments ;
; m_axi4_awaddr[27]  ; Incomplete set of assignments ;
; m_axi4_awaddr[28]  ; Incomplete set of assignments ;
; m_axi4_awaddr[29]  ; Incomplete set of assignments ;
; m_axi4_awaddr[30]  ; Incomplete set of assignments ;
; m_axi4_awaddr[31]  ; Incomplete set of assignments ;
; m_axi4_awvalid     ; Incomplete set of assignments ;
; m_axi4_awlen[0]    ; Incomplete set of assignments ;
; m_axi4_awlen[1]    ; Incomplete set of assignments ;
; m_axi4_awlen[2]    ; Incomplete set of assignments ;
; m_axi4_awlen[3]    ; Incomplete set of assignments ;
; m_axi4_awlen[4]    ; Incomplete set of assignments ;
; m_axi4_awlen[5]    ; Incomplete set of assignments ;
; m_axi4_awlen[6]    ; Incomplete set of assignments ;
; m_axi4_awlen[7]    ; Incomplete set of assignments ;
; m_axi4_awsize[0]   ; Incomplete set of assignments ;
; m_axi4_awsize[1]   ; Incomplete set of assignments ;
; m_axi4_awsize[2]   ; Incomplete set of assignments ;
; m_axi4_awburst[0]  ; Incomplete set of assignments ;
; m_axi4_awburst[1]  ; Incomplete set of assignments ;
; m_axi4_awlock      ; Incomplete set of assignments ;
; m_axi4_awprot[0]   ; Incomplete set of assignments ;
; m_axi4_awprot[1]   ; Incomplete set of assignments ;
; m_axi4_awprot[2]   ; Incomplete set of assignments ;
; m_axi4_awcache[0]  ; Incomplete set of assignments ;
; m_axi4_awcache[1]  ; Incomplete set of assignments ;
; m_axi4_awcache[2]  ; Incomplete set of assignments ;
; m_axi4_awcache[3]  ; Incomplete set of assignments ;
; m_axi4_awregion[0] ; Incomplete set of assignments ;
; m_axi4_awregion[1] ; Incomplete set of assignments ;
; m_axi4_awregion[2] ; Incomplete set of assignments ;
; m_axi4_awregion[3] ; Incomplete set of assignments ;
; m_axi4_awqos[0]    ; Incomplete set of assignments ;
; m_axi4_awqos[1]    ; Incomplete set of assignments ;
; m_axi4_awqos[2]    ; Incomplete set of assignments ;
; m_axi4_awqos[3]    ; Incomplete set of assignments ;
; m_axi4_awuser[0]   ; Incomplete set of assignments ;
; m_axi4_awuser[1]   ; Incomplete set of assignments ;
; m_axi4_awuser[2]   ; Incomplete set of assignments ;
; m_axi4_awuser[3]   ; Incomplete set of assignments ;
; s_axi4_wready      ; Incomplete set of assignments ;
; m_axi4_wdata[0]    ; Incomplete set of assignments ;
; m_axi4_wdata[1]    ; Incomplete set of assignments ;
; m_axi4_wdata[2]    ; Incomplete set of assignments ;
; m_axi4_wdata[3]    ; Incomplete set of assignments ;
; m_axi4_wdata[4]    ; Incomplete set of assignments ;
; m_axi4_wdata[5]    ; Incomplete set of assignments ;
; m_axi4_wdata[6]    ; Incomplete set of assignments ;
; m_axi4_wdata[7]    ; Incomplete set of assignments ;
; m_axi4_wdata[8]    ; Incomplete set of assignments ;
; m_axi4_wdata[9]    ; Incomplete set of assignments ;
; m_axi4_wdata[10]   ; Incomplete set of assignments ;
; m_axi4_wdata[11]   ; Incomplete set of assignments ;
; m_axi4_wdata[12]   ; Incomplete set of assignments ;
; m_axi4_wdata[13]   ; Incomplete set of assignments ;
; m_axi4_wdata[14]   ; Incomplete set of assignments ;
; m_axi4_wdata[15]   ; Incomplete set of assignments ;
; m_axi4_wdata[16]   ; Incomplete set of assignments ;
; m_axi4_wdata[17]   ; Incomplete set of assignments ;
; m_axi4_wdata[18]   ; Incomplete set of assignments ;
; m_axi4_wdata[19]   ; Incomplete set of assignments ;
; m_axi4_wdata[20]   ; Incomplete set of assignments ;
; m_axi4_wdata[21]   ; Incomplete set of assignments ;
; m_axi4_wdata[22]   ; Incomplete set of assignments ;
; m_axi4_wdata[23]   ; Incomplete set of assignments ;
; m_axi4_wdata[24]   ; Incomplete set of assignments ;
; m_axi4_wdata[25]   ; Incomplete set of assignments ;
; m_axi4_wdata[26]   ; Incomplete set of assignments ;
; m_axi4_wdata[27]   ; Incomplete set of assignments ;
; m_axi4_wdata[28]   ; Incomplete set of assignments ;
; m_axi4_wdata[29]   ; Incomplete set of assignments ;
; m_axi4_wdata[30]   ; Incomplete set of assignments ;
; m_axi4_wdata[31]   ; Incomplete set of assignments ;
; m_axi4_wvalid      ; Incomplete set of assignments ;
; m_axi4_wstrb[0]    ; Incomplete set of assignments ;
; m_axi4_wstrb[1]    ; Incomplete set of assignments ;
; m_axi4_wstrb[2]    ; Incomplete set of assignments ;
; m_axi4_wstrb[3]    ; Incomplete set of assignments ;
; m_axi4_wlast       ; Incomplete set of assignments ;
; m_axi4_wuser[0]    ; Incomplete set of assignments ;
; m_axi4_wuser[1]    ; Incomplete set of assignments ;
; m_axi4_wuser[2]    ; Incomplete set of assignments ;
; m_axi4_wuser[3]    ; Incomplete set of assignments ;
; s_axi4_bid[0]      ; Incomplete set of assignments ;
; s_axi4_bid[1]      ; Incomplete set of assignments ;
; s_axi4_bid[2]      ; Incomplete set of assignments ;
; s_axi4_bid[3]      ; Incomplete set of assignments ;
; s_axi4_bresp[0]    ; Incomplete set of assignments ;
; s_axi4_bresp[1]    ; Incomplete set of assignments ;
; s_axi4_bvalid      ; Incomplete set of assignments ;
; s_axi4_buser[0]    ; Incomplete set of assignments ;
; s_axi4_buser[1]    ; Incomplete set of assignments ;
; s_axi4_buser[2]    ; Incomplete set of assignments ;
; s_axi4_buser[3]    ; Incomplete set of assignments ;
; m_axi4_bready      ; Incomplete set of assignments ;
; s_axi4_arvalid     ; Incomplete set of assignments ;
; m_axi4_arready     ; Incomplete set of assignments ;
; axi4_aclk          ; Incomplete set of assignments ;
; axi4_arstn         ; Incomplete set of assignments ;
; s_axi4_arid[0]     ; Incomplete set of assignments ;
; s_axi4_arid[1]     ; Incomplete set of assignments ;
; s_axi4_arid[2]     ; Incomplete set of assignments ;
; s_axi4_arid[3]     ; Incomplete set of assignments ;
; s_axi4_araddr[0]   ; Incomplete set of assignments ;
; s_axi4_araddr[1]   ; Incomplete set of assignments ;
; s_axi4_araddr[2]   ; Incomplete set of assignments ;
; s_axi4_araddr[3]   ; Incomplete set of assignments ;
; s_axi4_araddr[4]   ; Incomplete set of assignments ;
; s_axi4_araddr[5]   ; Incomplete set of assignments ;
; s_axi4_araddr[6]   ; Incomplete set of assignments ;
; s_axi4_araddr[7]   ; Incomplete set of assignments ;
; s_axi4_araddr[8]   ; Incomplete set of assignments ;
; s_axi4_araddr[9]   ; Incomplete set of assignments ;
; s_axi4_araddr[10]  ; Incomplete set of assignments ;
; s_axi4_araddr[11]  ; Incomplete set of assignments ;
; s_axi4_araddr[12]  ; Incomplete set of assignments ;
; s_axi4_araddr[13]  ; Incomplete set of assignments ;
; s_axi4_araddr[14]  ; Incomplete set of assignments ;
; s_axi4_araddr[15]  ; Incomplete set of assignments ;
; s_axi4_araddr[16]  ; Incomplete set of assignments ;
; s_axi4_araddr[17]  ; Incomplete set of assignments ;
; s_axi4_araddr[18]  ; Incomplete set of assignments ;
; s_axi4_araddr[19]  ; Incomplete set of assignments ;
; s_axi4_araddr[20]  ; Incomplete set of assignments ;
; s_axi4_araddr[21]  ; Incomplete set of assignments ;
; s_axi4_araddr[22]  ; Incomplete set of assignments ;
; s_axi4_araddr[23]  ; Incomplete set of assignments ;
; s_axi4_araddr[24]  ; Incomplete set of assignments ;
; s_axi4_araddr[25]  ; Incomplete set of assignments ;
; s_axi4_araddr[26]  ; Incomplete set of assignments ;
; s_axi4_araddr[27]  ; Incomplete set of assignments ;
; s_axi4_araddr[28]  ; Incomplete set of assignments ;
; s_axi4_araddr[29]  ; Incomplete set of assignments ;
; s_axi4_araddr[30]  ; Incomplete set of assignments ;
; s_axi4_araddr[31]  ; Incomplete set of assignments ;
; s_axi4_arlen[0]    ; Incomplete set of assignments ;
; s_axi4_arlen[1]    ; Incomplete set of assignments ;
; s_axi4_arlen[2]    ; Incomplete set of assignments ;
; s_axi4_arlen[3]    ; Incomplete set of assignments ;
; s_axi4_arlen[4]    ; Incomplete set of assignments ;
; s_axi4_arlen[5]    ; Incomplete set of assignments ;
; s_axi4_arlen[6]    ; Incomplete set of assignments ;
; s_axi4_arlen[7]    ; Incomplete set of assignments ;
; s_axi4_arsize[0]   ; Incomplete set of assignments ;
; s_axi4_arsize[1]   ; Incomplete set of assignments ;
; s_axi4_arsize[2]   ; Incomplete set of assignments ;
; s_axi4_arburst[0]  ; Incomplete set of assignments ;
; s_axi4_arburst[1]  ; Incomplete set of assignments ;
; s_axi4_arlock      ; Incomplete set of assignments ;
; s_axi4_arprot[0]   ; Incomplete set of assignments ;
; s_axi4_arprot[1]   ; Incomplete set of assignments ;
; s_axi4_arprot[2]   ; Incomplete set of assignments ;
; s_axi4_arcache[0]  ; Incomplete set of assignments ;
; s_axi4_arcache[1]  ; Incomplete set of assignments ;
; s_axi4_arcache[2]  ; Incomplete set of assignments ;
; s_axi4_arcache[3]  ; Incomplete set of assignments ;
; s_axi4_aruser[0]   ; Incomplete set of assignments ;
; s_axi4_aruser[1]   ; Incomplete set of assignments ;
; s_axi4_aruser[2]   ; Incomplete set of assignments ;
; s_axi4_aruser[3]   ; Incomplete set of assignments ;
; m_axi4_rid[0]      ; Incomplete set of assignments ;
; m_axi4_rvalid      ; Incomplete set of assignments ;
; s_axi4_rready      ; Incomplete set of assignments ;
; m_axi4_rid[1]      ; Incomplete set of assignments ;
; m_axi4_rid[2]      ; Incomplete set of assignments ;
; m_axi4_rid[3]      ; Incomplete set of assignments ;
; m_axi4_rresp[0]    ; Incomplete set of assignments ;
; m_axi4_rresp[1]    ; Incomplete set of assignments ;
; m_axi4_rdata[0]    ; Incomplete set of assignments ;
; m_axi4_rdata[1]    ; Incomplete set of assignments ;
; m_axi4_rdata[2]    ; Incomplete set of assignments ;
; m_axi4_rdata[3]    ; Incomplete set of assignments ;
; m_axi4_rdata[4]    ; Incomplete set of assignments ;
; m_axi4_rdata[5]    ; Incomplete set of assignments ;
; m_axi4_rdata[6]    ; Incomplete set of assignments ;
; m_axi4_rdata[7]    ; Incomplete set of assignments ;
; m_axi4_rdata[8]    ; Incomplete set of assignments ;
; m_axi4_rdata[9]    ; Incomplete set of assignments ;
; m_axi4_rdata[10]   ; Incomplete set of assignments ;
; m_axi4_rdata[11]   ; Incomplete set of assignments ;
; m_axi4_rdata[12]   ; Incomplete set of assignments ;
; m_axi4_rdata[13]   ; Incomplete set of assignments ;
; m_axi4_rdata[14]   ; Incomplete set of assignments ;
; m_axi4_rdata[15]   ; Incomplete set of assignments ;
; m_axi4_rdata[16]   ; Incomplete set of assignments ;
; m_axi4_rdata[17]   ; Incomplete set of assignments ;
; m_axi4_rdata[18]   ; Incomplete set of assignments ;
; m_axi4_rdata[19]   ; Incomplete set of assignments ;
; m_axi4_rdata[20]   ; Incomplete set of assignments ;
; m_axi4_rdata[21]   ; Incomplete set of assignments ;
; m_axi4_rdata[22]   ; Incomplete set of assignments ;
; m_axi4_rdata[23]   ; Incomplete set of assignments ;
; m_axi4_rdata[24]   ; Incomplete set of assignments ;
; m_axi4_rdata[25]   ; Incomplete set of assignments ;
; m_axi4_rdata[26]   ; Incomplete set of assignments ;
; m_axi4_rdata[27]   ; Incomplete set of assignments ;
; m_axi4_rdata[28]   ; Incomplete set of assignments ;
; m_axi4_rdata[29]   ; Incomplete set of assignments ;
; m_axi4_rdata[30]   ; Incomplete set of assignments ;
; m_axi4_rdata[31]   ; Incomplete set of assignments ;
; m_axi4_rlast       ; Incomplete set of assignments ;
; m_axi4_ruser[0]    ; Incomplete set of assignments ;
; m_axi4_ruser[1]    ; Incomplete set of assignments ;
; m_axi4_ruser[2]    ; Incomplete set of assignments ;
; m_axi4_ruser[3]    ; Incomplete set of assignments ;
; s_axi4_awvalid     ; Incomplete set of assignments ;
; m_axi4_awready     ; Incomplete set of assignments ;
; s_axi4_awid[0]     ; Incomplete set of assignments ;
; s_axi4_awid[1]     ; Incomplete set of assignments ;
; s_axi4_awid[2]     ; Incomplete set of assignments ;
; s_axi4_awid[3]     ; Incomplete set of assignments ;
; s_axi4_awaddr[0]   ; Incomplete set of assignments ;
; s_axi4_awaddr[1]   ; Incomplete set of assignments ;
; s_axi4_awaddr[2]   ; Incomplete set of assignments ;
; s_axi4_awaddr[3]   ; Incomplete set of assignments ;
; s_axi4_awaddr[4]   ; Incomplete set of assignments ;
; s_axi4_awaddr[5]   ; Incomplete set of assignments ;
; s_axi4_awaddr[6]   ; Incomplete set of assignments ;
; s_axi4_awaddr[7]   ; Incomplete set of assignments ;
; s_axi4_awaddr[8]   ; Incomplete set of assignments ;
; s_axi4_awaddr[9]   ; Incomplete set of assignments ;
; s_axi4_awaddr[10]  ; Incomplete set of assignments ;
; s_axi4_awaddr[11]  ; Incomplete set of assignments ;
; s_axi4_awaddr[12]  ; Incomplete set of assignments ;
; s_axi4_awaddr[13]  ; Incomplete set of assignments ;
; s_axi4_awaddr[14]  ; Incomplete set of assignments ;
; s_axi4_awaddr[15]  ; Incomplete set of assignments ;
; s_axi4_awaddr[16]  ; Incomplete set of assignments ;
; s_axi4_awaddr[17]  ; Incomplete set of assignments ;
; s_axi4_awaddr[18]  ; Incomplete set of assignments ;
; s_axi4_awaddr[19]  ; Incomplete set of assignments ;
; s_axi4_awaddr[20]  ; Incomplete set of assignments ;
; s_axi4_awaddr[21]  ; Incomplete set of assignments ;
; s_axi4_awaddr[22]  ; Incomplete set of assignments ;
; s_axi4_awaddr[23]  ; Incomplete set of assignments ;
; s_axi4_awaddr[24]  ; Incomplete set of assignments ;
; s_axi4_awaddr[25]  ; Incomplete set of assignments ;
; s_axi4_awaddr[26]  ; Incomplete set of assignments ;
; s_axi4_awaddr[27]  ; Incomplete set of assignments ;
; s_axi4_awaddr[28]  ; Incomplete set of assignments ;
; s_axi4_awaddr[29]  ; Incomplete set of assignments ;
; s_axi4_awaddr[30]  ; Incomplete set of assignments ;
; s_axi4_awaddr[31]  ; Incomplete set of assignments ;
; s_axi4_awlen[0]    ; Incomplete set of assignments ;
; s_axi4_awlen[1]    ; Incomplete set of assignments ;
; s_axi4_awlen[2]    ; Incomplete set of assignments ;
; s_axi4_awlen[3]    ; Incomplete set of assignments ;
; s_axi4_awlen[4]    ; Incomplete set of assignments ;
; s_axi4_awlen[5]    ; Incomplete set of assignments ;
; s_axi4_awlen[6]    ; Incomplete set of assignments ;
; s_axi4_awlen[7]    ; Incomplete set of assignments ;
; s_axi4_awsize[0]   ; Incomplete set of assignments ;
; s_axi4_awsize[1]   ; Incomplete set of assignments ;
; s_axi4_awsize[2]   ; Incomplete set of assignments ;
; s_axi4_awburst[0]  ; Incomplete set of assignments ;
; s_axi4_awburst[1]  ; Incomplete set of assignments ;
; s_axi4_awlock      ; Incomplete set of assignments ;
; s_axi4_awprot[0]   ; Incomplete set of assignments ;
; s_axi4_awprot[1]   ; Incomplete set of assignments ;
; s_axi4_awprot[2]   ; Incomplete set of assignments ;
; s_axi4_awcache[0]  ; Incomplete set of assignments ;
; s_axi4_awcache[1]  ; Incomplete set of assignments ;
; s_axi4_awcache[2]  ; Incomplete set of assignments ;
; s_axi4_awcache[3]  ; Incomplete set of assignments ;
; s_axi4_awregion[0] ; Incomplete set of assignments ;
; s_axi4_awregion[1] ; Incomplete set of assignments ;
; s_axi4_awregion[2] ; Incomplete set of assignments ;
; s_axi4_awregion[3] ; Incomplete set of assignments ;
; s_axi4_awqos[0]    ; Incomplete set of assignments ;
; s_axi4_awqos[1]    ; Incomplete set of assignments ;
; s_axi4_awqos[2]    ; Incomplete set of assignments ;
; s_axi4_awqos[3]    ; Incomplete set of assignments ;
; s_axi4_awuser[0]   ; Incomplete set of assignments ;
; s_axi4_awuser[1]   ; Incomplete set of assignments ;
; s_axi4_awuser[2]   ; Incomplete set of assignments ;
; s_axi4_awuser[3]   ; Incomplete set of assignments ;
; m_axi4_wready      ; Incomplete set of assignments ;
; s_axi4_wvalid      ; Incomplete set of assignments ;
; s_axi4_wdata[0]    ; Incomplete set of assignments ;
; s_axi4_wdata[1]    ; Incomplete set of assignments ;
; s_axi4_wdata[2]    ; Incomplete set of assignments ;
; s_axi4_wdata[3]    ; Incomplete set of assignments ;
; s_axi4_wdata[4]    ; Incomplete set of assignments ;
; s_axi4_wdata[5]    ; Incomplete set of assignments ;
; s_axi4_wdata[6]    ; Incomplete set of assignments ;
; s_axi4_wdata[7]    ; Incomplete set of assignments ;
; s_axi4_wdata[8]    ; Incomplete set of assignments ;
; s_axi4_wdata[9]    ; Incomplete set of assignments ;
; s_axi4_wdata[10]   ; Incomplete set of assignments ;
; s_axi4_wdata[11]   ; Incomplete set of assignments ;
; s_axi4_wdata[12]   ; Incomplete set of assignments ;
; s_axi4_wdata[13]   ; Incomplete set of assignments ;
; s_axi4_wdata[14]   ; Incomplete set of assignments ;
; s_axi4_wdata[15]   ; Incomplete set of assignments ;
; s_axi4_wdata[16]   ; Incomplete set of assignments ;
; s_axi4_wdata[17]   ; Incomplete set of assignments ;
; s_axi4_wdata[18]   ; Incomplete set of assignments ;
; s_axi4_wdata[19]   ; Incomplete set of assignments ;
; s_axi4_wdata[20]   ; Incomplete set of assignments ;
; s_axi4_wdata[21]   ; Incomplete set of assignments ;
; s_axi4_wdata[22]   ; Incomplete set of assignments ;
; s_axi4_wdata[23]   ; Incomplete set of assignments ;
; s_axi4_wdata[24]   ; Incomplete set of assignments ;
; s_axi4_wdata[25]   ; Incomplete set of assignments ;
; s_axi4_wdata[26]   ; Incomplete set of assignments ;
; s_axi4_wdata[27]   ; Incomplete set of assignments ;
; s_axi4_wdata[28]   ; Incomplete set of assignments ;
; s_axi4_wdata[29]   ; Incomplete set of assignments ;
; s_axi4_wdata[30]   ; Incomplete set of assignments ;
; s_axi4_wdata[31]   ; Incomplete set of assignments ;
; s_axi4_wstrb[0]    ; Incomplete set of assignments ;
; s_axi4_wstrb[1]    ; Incomplete set of assignments ;
; s_axi4_wstrb[2]    ; Incomplete set of assignments ;
; s_axi4_wstrb[3]    ; Incomplete set of assignments ;
; s_axi4_wlast       ; Incomplete set of assignments ;
; s_axi4_wuser[0]    ; Incomplete set of assignments ;
; s_axi4_wuser[1]    ; Incomplete set of assignments ;
; s_axi4_wuser[2]    ; Incomplete set of assignments ;
; s_axi4_wuser[3]    ; Incomplete set of assignments ;
; m_axi4_bid[0]      ; Incomplete set of assignments ;
; m_axi4_bvalid      ; Incomplete set of assignments ;
; s_axi4_bready      ; Incomplete set of assignments ;
; m_axi4_bid[1]      ; Incomplete set of assignments ;
; m_axi4_bid[2]      ; Incomplete set of assignments ;
; m_axi4_bid[3]      ; Incomplete set of assignments ;
; m_axi4_bresp[0]    ; Incomplete set of assignments ;
; m_axi4_bresp[1]    ; Incomplete set of assignments ;
; m_axi4_buser[0]    ; Incomplete set of assignments ;
; m_axi4_buser[1]    ; Incomplete set of assignments ;
; m_axi4_buser[2]    ; Incomplete set of assignments ;
; m_axi4_buser[3]    ; Incomplete set of assignments ;
+--------------------+-------------------------------+


+----------------------------------------------------------------------------------------------------------------------------------------------------------------------------------------------------------------------------------------+
; Fitter Netlist Optimizations                                                                                                                                                                                                           ;
+---------------------------------------------------------------+-----------------+------------------+--------------------------------+-----------+----------------+--------------------------+------------------+-----------------------+
; Node                                                          ; Action          ; Operation        ; Reason                         ; Node Port ; Node Port Name ; Destination Node         ; Destination Port ; Destination Port Name ;
+---------------------------------------------------------------+-----------------+------------------+--------------------------------+-----------+----------------+--------------------------+------------------+-----------------------+
; axi4_ar_buffer:ar|axi_timed_buffer_rab:u_buffer|buffer[1][1]  ; Packed Register ; Register Packing ; Fast Input Register assignment ; Q         ;                ; s_axi4_arcache[1]~input  ; O                ;                       ;
; axi4_ar_buffer:ar|axi_timed_buffer_rab:u_buffer|buffer[1][3]  ; Packed Register ; Register Packing ; Fast Input Register assignment ; Q         ;                ; s_axi4_arcache[3]~input  ; O                ;                       ;
; axi4_ar_buffer:ar|axi_timed_buffer_rab:u_buffer|buffer[1][4]  ; Packed Register ; Register Packing ; Fast Input Register assignment ; Q         ;                ; s_axi4_arprot[0]~input   ; O                ;                       ;
; axi4_ar_buffer:ar|axi_timed_buffer_rab:u_buffer|buffer[1][6]  ; Packed Register ; Register Packing ; Fast Input Register assignment ; Q         ;                ; s_axi4_arprot[2]~input   ; O                ;                       ;
; axi4_ar_buffer:ar|axi_timed_buffer_rab:u_buffer|buffer[1][9]  ; Packed Register ; Register Packing ; Fast Input Register assignment ; Q         ;                ; s_axi4_arburst[1]~input  ; O                ;                       ;
; axi4_ar_buffer:ar|axi_timed_buffer_rab:u_buffer|buffer[1][10] ; Packed Register ; Register Packing ; Fast Input Register assignment ; Q         ;                ; s_axi4_arsize[0]~input   ; O                ;                       ;
; axi4_ar_buffer:ar|axi_timed_buffer_rab:u_buffer|buffer[1][12] ; Packed Register ; Register Packing ; Fast Input Register assignment ; Q         ;                ; s_axi4_arsize[2]~input   ; O                ;                       ;
; axi4_ar_buffer:ar|axi_timed_buffer_rab:u_buffer|buffer[1][13] ; Packed Register ; Register Packing ; Fast Input Register assignment ; Q         ;                ; s_axi4_arlen[0]~input    ; O                ;                       ;
; axi4_ar_buffer:ar|axi_timed_buffer_rab:u_buffer|buffer[1][15] ; Packed Register ; Register Packing ; Fast Input Register assignment ; Q         ;                ; s_axi4_arlen[2]~input    ; O                ;                       ;
; axi4_ar_buffer:ar|axi_timed_buffer_rab:u_buffer|buffer[1][17] ; Packed Register ; Register Packing ; Fast Input Register assignment ; Q         ;                ; s_axi4_arlen[4]~input    ; O                ;                       ;
; axi4_ar_buffer:ar|axi_timed_buffer_rab:u_buffer|buffer[1][19] ; Packed Register ; Register Packing ; Fast Input Register assignment ; Q         ;                ; s_axi4_arlen[6]~input    ; O                ;                       ;
; axi4_ar_buffer:ar|axi_timed_buffer_rab:u_buffer|buffer[1][22] ; Packed Register ; Register Packing ; Fast Input Register assignment ; Q         ;                ; s_axi4_araddr[1]~input   ; O                ;                       ;
; axi4_ar_buffer:ar|axi_timed_buffer_rab:u_buffer|buffer[1][24] ; Packed Register ; Register Packing ; Fast Input Register assignment ; Q         ;                ; s_axi4_araddr[3]~input   ; O                ;                       ;
; axi4_ar_buffer:ar|axi_timed_buffer_rab:u_buffer|buffer[1][26] ; Packed Register ; Register Packing ; Fast Input Register assignment ; Q         ;                ; s_axi4_araddr[5]~input   ; O                ;                       ;
; axi4_ar_buffer:ar|axi_timed_buffer_rab:u_buffer|buffer[1][28] ; Packed Register ; Register Packing ; Fast Input Register assignment ; Q         ;                ; s_axi4_araddr[7]~input   ; O                ;                       ;
; axi4_ar_buffer:ar|axi_timed_buffer_rab:u_buffer|buffer[1][30] ; Packed Register ; Register Packing ; Fast Input Register assignment ; Q         ;                ; s_axi4_araddr[9]~input   ; O                ;                       ;
; axi4_ar_buffer:ar|axi_timed_buffer_rab:u_buffer|buffer[1][32] ; Packed Register ; Register Packing ; Fast Input Register assignment ; Q         ;                ; s_axi4_araddr[11]~input  ; O                ;                       ;
; axi4_ar_buffer:ar|axi_timed_buffer_rab:u_buffer|buffer[1][54] ; Packed Register ; Register Packing ; Fast Input Register assignment ; Q         ;                ; s_axi4_arid[1]~input     ; O                ;                       ;
; axi4_ar_buffer:ar|axi_timed_buffer_rab:u_buffer|buffer[1][56] ; Packed Register ; Register Packing ; Fast Input Register assignment ; Q         ;                ; s_axi4_arid[3]~input     ; O                ;                       ;
; axi4_ar_buffer:ar|axi_timed_buffer_rab:u_buffer|buffer[1][58] ; Packed Register ; Register Packing ; Fast Input Register assignment ; Q         ;                ; s_axi4_aruser[1]~input   ; O                ;                       ;
; axi4_ar_buffer:ar|axi_timed_buffer_rab:u_buffer|buffer[1][60] ; Packed Register ; Register Packing ; Fast Input Register assignment ; Q         ;                ; s_axi4_aruser[3]~input   ; O                ;                       ;
; axi4_ar_buffer:ar|axi_timed_buffer_rab:u_buffer|buffer[2][0]  ; Packed Register ; Register Packing ; Fast Input Register assignment ; Q         ;                ; s_axi4_arcache[0]~input  ; O                ;                       ;
; axi4_ar_buffer:ar|axi_timed_buffer_rab:u_buffer|buffer[2][2]  ; Packed Register ; Register Packing ; Fast Input Register assignment ; Q         ;                ; s_axi4_arcache[2]~input  ; O                ;                       ;
; axi4_ar_buffer:ar|axi_timed_buffer_rab:u_buffer|buffer[2][5]  ; Packed Register ; Register Packing ; Fast Input Register assignment ; Q         ;                ; s_axi4_arprot[1]~input   ; O                ;                       ;
; axi4_ar_buffer:ar|axi_timed_buffer_rab:u_buffer|buffer[2][7]  ; Packed Register ; Register Packing ; Fast Input Register assignment ; Q         ;                ; s_axi4_arlock~input      ; O                ;                       ;
; axi4_ar_buffer:ar|axi_timed_buffer_rab:u_buffer|buffer[2][8]  ; Packed Register ; Register Packing ; Fast Input Register assignment ; Q         ;                ; s_axi4_arburst[0]~input  ; O                ;                       ;
; axi4_ar_buffer:ar|axi_timed_buffer_rab:u_buffer|buffer[2][11] ; Packed Register ; Register Packing ; Fast Input Register assignment ; Q         ;                ; s_axi4_arsize[1]~input   ; O                ;                       ;
; axi4_ar_buffer:ar|axi_timed_buffer_rab:u_buffer|buffer[2][14] ; Packed Register ; Register Packing ; Fast Input Register assignment ; Q         ;                ; s_axi4_arlen[1]~input    ; O                ;                       ;
; axi4_ar_buffer:ar|axi_timed_buffer_rab:u_buffer|buffer[2][16] ; Packed Register ; Register Packing ; Fast Input Register assignment ; Q         ;                ; s_axi4_arlen[3]~input    ; O                ;                       ;
; axi4_ar_buffer:ar|axi_timed_buffer_rab:u_buffer|buffer[2][18] ; Packed Register ; Register Packing ; Fast Input Register assignment ; Q         ;                ; s_axi4_arlen[5]~input    ; O                ;                       ;
; axi4_ar_buffer:ar|axi_timed_buffer_rab:u_buffer|buffer[2][20] ; Packed Register ; Register Packing ; Fast Input Register assignment ; Q         ;                ; s_axi4_arlen[7]~input    ; O                ;                       ;
; axi4_ar_buffer:ar|axi_timed_buffer_rab:u_buffer|buffer[2][21] ; Packed Register ; Register Packing ; Fast Input Register assignment ; Q         ;                ; s_axi4_araddr[0]~input   ; O                ;                       ;
; axi4_ar_buffer:ar|axi_timed_buffer_rab:u_buffer|buffer[2][23] ; Packed Register ; Register Packing ; Fast Input Register assignment ; Q         ;                ; s_axi4_araddr[2]~input   ; O                ;                       ;
; axi4_ar_buffer:ar|axi_timed_buffer_rab:u_buffer|buffer[2][25] ; Packed Register ; Register Packing ; Fast Input Register assignment ; Q         ;                ; s_axi4_araddr[4]~input   ; O                ;                       ;
; axi4_ar_buffer:ar|axi_timed_buffer_rab:u_buffer|buffer[2][27] ; Packed Register ; Register Packing ; Fast Input Register assignment ; Q         ;                ; s_axi4_araddr[6]~input   ; O                ;                       ;
; axi4_ar_buffer:ar|axi_timed_buffer_rab:u_buffer|buffer[2][29] ; Packed Register ; Register Packing ; Fast Input Register assignment ; Q         ;                ; s_axi4_araddr[8]~input   ; O                ;                       ;
; axi4_ar_buffer:ar|axi_timed_buffer_rab:u_buffer|buffer[2][31] ; Packed Register ; Register Packing ; Fast Input Register assignment ; Q         ;                ; s_axi4_araddr[10]~input  ; O                ;                       ;
; axi4_ar_buffer:ar|axi_timed_buffer_rab:u_buffer|buffer[2][53] ; Packed Register ; Register Packing ; Fast Input Register assignment ; Q         ;                ; s_axi4_arid[0]~input     ; O                ;                       ;
; axi4_ar_buffer:ar|axi_timed_buffer_rab:u_buffer|buffer[2][55] ; Packed Register ; Register Packing ; Fast Input Register assignment ; Q         ;                ; s_axi4_arid[2]~input     ; O                ;                       ;
; axi4_ar_buffer:ar|axi_timed_buffer_rab:u_buffer|buffer[2][57] ; Packed Register ; Register Packing ; Fast Input Register assignment ; Q         ;                ; s_axi4_aruser[0]~input   ; O                ;                       ;
; axi4_ar_buffer:ar|axi_timed_buffer_rab:u_buffer|buffer[2][59] ; Packed Register ; Register Packing ; Fast Input Register assignment ; Q         ;                ; s_axi4_aruser[2]~input   ; O                ;                       ;
; axi4_aw_buffer:aw|axi_timed_buffer_rab:u_buffer|buffer[1][1]  ; Packed Register ; Register Packing ; Fast Input Register assignment ; Q         ;                ; s_axi4_awcache[1]~input  ; O                ;                       ;
; axi4_aw_buffer:aw|axi_timed_buffer_rab:u_buffer|buffer[1][3]  ; Packed Register ; Register Packing ; Fast Input Register assignment ; Q         ;                ; s_axi4_awcache[3]~input  ; O                ;                       ;
; axi4_aw_buffer:aw|axi_timed_buffer_rab:u_buffer|buffer[1][4]  ; Packed Register ; Register Packing ; Fast Input Register assignment ; Q         ;                ; s_axi4_awprot[0]~input   ; O                ;                       ;
; axi4_aw_buffer:aw|axi_timed_buffer_rab:u_buffer|buffer[1][6]  ; Packed Register ; Register Packing ; Fast Input Register assignment ; Q         ;                ; s_axi4_awprot[2]~input   ; O                ;                       ;
; axi4_aw_buffer:aw|axi_timed_buffer_rab:u_buffer|buffer[1][9]  ; Packed Register ; Register Packing ; Fast Input Register assignment ; Q         ;                ; s_axi4_awburst[1]~input  ; O                ;                       ;
; axi4_aw_buffer:aw|axi_timed_buffer_rab:u_buffer|buffer[1][10] ; Packed Register ; Register Packing ; Fast Input Register assignment ; Q         ;                ; s_axi4_awsize[0]~input   ; O                ;                       ;
; axi4_aw_buffer:aw|axi_timed_buffer_rab:u_buffer|buffer[1][12] ; Packed Register ; Register Packing ; Fast Input Register assignment ; Q         ;                ; s_axi4_awsize[2]~input   ; O                ;                       ;
; axi4_aw_buffer:aw|axi_timed_buffer_rab:u_buffer|buffer[1][13] ; Packed Register ; Register Packing ; Fast Input Register assignment ; Q         ;                ; s_axi4_awlen[0]~input    ; O                ;                       ;
; axi4_aw_buffer:aw|axi_timed_buffer_rab:u_buffer|buffer[1][15] ; Packed Register ; Register Packing ; Fast Input Register assignment ; Q         ;                ; s_axi4_awlen[2]~input    ; O                ;                       ;
; axi4_aw_buffer:aw|axi_timed_buffer_rab:u_buffer|buffer[1][17] ; Packed Register ; Register Packing ; Fast Input Register assignment ; Q         ;                ; s_axi4_awlen[4]~input    ; O                ;                       ;
; axi4_aw_buffer:aw|axi_timed_buffer_rab:u_buffer|buffer[1][19] ; Packed Register ; Register Packing ; Fast Input Register assignment ; Q         ;                ; s_axi4_awlen[6]~input    ; O                ;                       ;
; axi4_aw_buffer:aw|axi_timed_buffer_rab:u_buffer|buffer[1][22] ; Packed Register ; Register Packing ; Fast Input Register assignment ; Q         ;                ; s_axi4_awaddr[1]~input   ; O                ;                       ;
; axi4_aw_buffer:aw|axi_timed_buffer_rab:u_buffer|buffer[1][24] ; Packed Register ; Register Packing ; Fast Input Register assignment ; Q         ;                ; s_axi4_awaddr[3]~input   ; O                ;                       ;
; axi4_aw_buffer:aw|axi_timed_buffer_rab:u_buffer|buffer[1][26] ; Packed Register ; Register Packing ; Fast Input Register assignment ; Q         ;                ; s_axi4_awaddr[5]~input   ; O                ;                       ;
; axi4_aw_buffer:aw|axi_timed_buffer_rab:u_buffer|buffer[1][28] ; Packed Register ; Register Packing ; Fast Input Register assignment ; Q         ;                ; s_axi4_awaddr[7]~input   ; O                ;                       ;
; axi4_aw_buffer:aw|axi_timed_buffer_rab:u_buffer|buffer[1][30] ; Packed Register ; Register Packing ; Fast Input Register assignment ; Q         ;                ; s_axi4_awaddr[9]~input   ; O                ;                       ;
; axi4_aw_buffer:aw|axi_timed_buffer_rab:u_buffer|buffer[1][32] ; Packed Register ; Register Packing ; Fast Input Register assignment ; Q         ;                ; s_axi4_awaddr[11]~input  ; O                ;                       ;
